
T2494 000:036 SEGGER J-Link V4.72a Log File (0000ms, 0036ms total)
T2494 000:036 DLL Compiled: Jun 26 2013 11:49:14 (0000ms, 0036ms total)
T2494 000:036 Logging started @ 2017-12-13 14:16 (0000ms, 0036ms total)
T2494 000:036 JLINK_SetWarnOutHandler(...) (0000ms, 0036ms total)
T2494 000:036 JLINK_OpenEx(...)
Firmware: J-Link ARM V8 compiled Nov 28 2014 13:44:46
Hardware: V8.00
S/N: 270676280
Feature(s): RDI,FlashDL,FlashBP,JFlash,GDBFULL  returns O.K. (0012ms, 0048ms total)
T2494 000:048 JLINK_SetErrorOutHandler(...) (0000ms, 0048ms total)
T2494 000:048 JLINK_ExecCommand("ProjectFile = "E:\FreeRTOS实验4-3 FreeRTOS任务挂起和恢复实验\USER\JLinkSettings.ini"", ...)  returns 0x00 (0000ms, 0048ms total)
T2494 000:048 JLINK_ExecCommand("Device = STM32F103RC", ...)
                JLINK_AddMirrorAreaEx(Addr = 0x00000000, Size = 0x00000000) (0000ms, 0000ms total)
              Device "STM32F103RC" selected (256 KB flash, 48 KB RAM).  returns 0x00 (0000ms, 0048ms total)
T2494 000:048 JLINK_ExecCommand("DisableConnectionTimeout", ...)  returns 0x00 (0001ms, 0049ms total)
T2494 000:049 JLINK_GetHardwareVersion()  returns 0x13880 (0000ms, 0049ms total)
T2494 000:049 JLINK_GetDLLVersion()  returns 47201 (0000ms, 0049ms total)
T2494 000:049 JLINK_GetFirmwareString(...) (0000ms, 0049ms total)
T2494 000:049 JLINK_GetDLLVersion()  returns 47201 (0000ms, 0049ms total)
T2494 000:049 JLINK_GetCompileDateTime() (0000ms, 0049ms total)
T2494 000:049 JLINK_GetFirmwareString(...) (0000ms, 0049ms total)
T2494 000:049 JLINK_GetHardwareVersion()  returns 0x13880 (0000ms, 0049ms total)
T2494 000:049 JLINK_TIF_Select(JLINKARM_TIF_SWD)  returns 0x00 (0001ms, 0050ms total)
T2494 000:050 JLINK_SetSpeed(20000) (0001ms, 0051ms total)
T2494 000:051 JLINK_GetId() >0x108 TIF>Found SWD-DP with ID 0x1BA01477 >0x0D TIF> >0x28 TIF> >0x0D TIF> >0x28 TIF> >0x0D TIF> >0x21 TIF> >0x0D TIF> >0x28 TIF> >0x0D TIF> >0x28 TIF> >0x0D TIF> >0x28 TIF> >0x0D TIF> >0x21 TIF> >0x0D TIF> >0x21 TIF> >0x0D TIF> >0x28 TIF> >0x0D TIF> >0x21 TIF> >0x0D TIF> >0x21 TIF> >0x108 TIF>Found SWD-DP with ID 0x1BA01477 >0x0D TIF> >0x21 TIF> >0x0D TIF> >0x28 TIF> >0x0D TIF> >0x28 TIF> >0x0D TIF> >0x21 TIF> >0x0D TIF> >0x21 TIF> >0x0D TIF> >0x28 TIF> >0x0D TIF> >0x21 TIF>
 >0x0D TIF> >0x21 TIF> >0x0D TIF> >0x21 TIF> >0x0D TIF> >0x21 TIF> >0x0D TIF> >0x21 TIF> >0x0D TIF> >0x28 TIF> >0x0D TIF> >0x28 TIF> >0x0D TIF> >0x21 TIF> >0x0D TIF> >0x21 TIF> >0x0D TIF> >0x28 TIF> >0x0D TIF> >0x21 TIF> >0x0D TIF> >0x21 TIF> >0x0D TIF> >0x28 TIF> >0x0D TIF> >0x28 TIF> >0x0D TIF> >0x28 TIF> >0x0D TIF> >0x21 TIF> >0x0D TIF> >0x21 TIF> >0x0D TIF> >0x28 TIF> >0x0D TIF> >0x28 TIF> >0x0D TIF> >0x28 TIF> >0x0D TIF> >0x21 TIF> >0x0D TIF> >0x21 TIF> >0x0D TIF> >0x21 TIF>TPIU fitted.ETM fitted.
 >0x0D TIF> >0x28 TIF> >0x0D TIF> >0x21 TIF> >0x0D TIF> >0x21 TIF> >0x0D TIF> >0x28 TIF> >0x0D TIF> >0x21 TIF> >0x0D TIF> >0x21 TIF>FPUnit: 6 code (BP) slots and 2 literal slots >0x0D TIF> >0x28 TIF> >0x0D TIF> >0x21 TIF> >0x0D TIF> >0x21 TIF> >0x0D TIF> >0x28 TIF> >0x0D TIF> >0x21 TIF> >0x0D TIF> >0x21 TIF> >0x0D TIF> >0x28 TIF> >0x0D TIF> >0x21 TIF> >0x0D TIF> >0x21 TIF> >0x0D TIF> >0x28 TIF> >0x0D TIF> >0x21 TIF> >0x0D TIF> >0x21 TIF>Found Cortex-M3 r1p1, Little endian. >0x0D TIF> >0x21 TIF>
  returns 0x1BA01477 (0047ms, 0098ms total)
T2494 000:098 JLINK_GetDLLVersion()  returns 47201 (0000ms, 0098ms total)
T2494 000:098 JLINK_CORE_GetFound()  returns 0x30000FF (0000ms, 0098ms total)
T2494 000:098 JLINK_ReadMem (0xE00FF000, 0x0020 Bytes, ...) -- CPU is running -- CPU_ReadMem(32 bytes @ 0xE00FF000) -- Data:  03 F0 F0 FF 03 20 F0 FF 03 30 F0 FF 03 10 F0 FF ...  returns 0x00 (0001ms, 0099ms total)
T2494 000:099 JLINK_ReadMem (0xE000EFF0, 0x0010 Bytes, ...) -- CPU is running -- CPU_ReadMem(16 bytes @ 0xE000EFF0) -- Data:  0D 00 00 00 E0 00 00 00 05 00 00 00 B1 00 00 00  returns 0x00 (0001ms, 0100ms total)
T2494 000:100 JLINK_ReadMem (0xE000EFD0, 0x0020 Bytes, ...) -- CPU is running -- CPU_ReadMem(32 bytes @ 0xE000EFD0) -- Data:  04 00 00 00 00 00 00 00 00 00 00 00 00 00 00 00 ...  returns 0x00 (0001ms, 0101ms total)
T2494 000:101 JLINK_ReadMem (0xE0001FF0, 0x0010 Bytes, ...) -- CPU is running -- CPU_ReadMem(16 bytes @ 0xE0001FF0) -- Data:  0D 00 00 00 E0 00 00 00 05 00 00 00 B1 00 00 00  returns 0x00 (0001ms, 0102ms total)
T2494 000:102 JLINK_ReadMem (0xE0001FD0, 0x0020 Bytes, ...) -- CPU is running -- CPU_ReadMem(32 bytes @ 0xE0001FD0) -- Data:  04 00 00 00 00 00 00 00 00 00 00 00 00 00 00 00 ...  returns 0x00 (0000ms, 0102ms total)
T2494 000:102 JLINK_ReadMem (0xE0002FF0, 0x0010 Bytes, ...) -- CPU is running -- CPU_ReadMem(16 bytes @ 0xE0002FF0) -- Data:  0D 00 00 00 E0 00 00 00 05 00 00 00 B1 00 00 00  returns 0x00 (0001ms, 0103ms total)
T2494 000:103 JLINK_ReadMem (0xE0002FD0, 0x0020 Bytes, ...) -- CPU is running -- CPU_ReadMem(32 bytes @ 0xE0002FD0) -- Data:  04 00 00 00 00 00 00 00 00 00 00 00 00 00 00 00 ...  returns 0x00 (0001ms, 0104ms total)
T2494 000:104 JLINK_ReadMem (0xE0000FF0, 0x0010 Bytes, ...) -- CPU is running -- CPU_ReadMem(16 bytes @ 0xE0000FF0) -- Data:  0D 00 00 00 E0 00 00 00 05 00 00 00 B1 00 00 00  returns 0x00 (0001ms, 0105ms total)
T2494 000:105 JLINK_ReadMem (0xE0000FD0, 0x0020 Bytes, ...) -- CPU is running -- CPU_ReadMem(32 bytes @ 0xE0000FD0) -- Data:  04 00 00 00 00 00 00 00 00 00 00 00 00 00 00 00 ...  returns 0x00 (0001ms, 0106ms total)
T2494 000:106 JLINK_ReadMem (0xE0040FF0, 0x0010 Bytes, ...) -- CPU is running -- CPU_ReadMem(16 bytes @ 0xE0040FF0) -- Data:  0D 00 00 00 90 00 00 00 05 00 00 00 B1 00 00 00  returns 0x00 (0000ms, 0106ms total)
T2494 000:106 JLINK_ReadMem (0xE0040FD0, 0x0020 Bytes, ...) -- CPU is running -- CPU_ReadMem(32 bytes @ 0xE0040FD0) -- Data:  04 00 00 00 00 00 00 00 00 00 00 00 00 00 00 00 ...  returns 0x00 (0001ms, 0107ms total)
T2494 000:107 JLINK_ReadMem (0xE0041FF0, 0x0010 Bytes, ...) -- CPU is running -- CPU_ReadMem(16 bytes @ 0xE0041FF0) -- Data:  0D 00 00 00 90 00 00 00 05 00 00 00 B1 00 00 00  returns 0x00 (0001ms, 0108ms total)
T2494 000:108 JLINK_ReadMem (0xE0041FD0, 0x0020 Bytes, ...) -- CPU is running -- CPU_ReadMem(32 bytes @ 0xE0041FD0) -- Data:  04 00 00 00 00 00 00 00 00 00 00 00 00 00 00 00 ...  returns 0x00 (0001ms, 0109ms total)
T2494 000:109 JLINK_ReadMemU32(0xE000ED00, 0x0001 Items, ...) -- CPU is running -- CPU_ReadMem(4 bytes @ 0xE000ED00) -- Data:  31 C2 1F 41  returns 0x01 (0000ms, 0109ms total)
T2494 000:109 JLINK_SetResetType(JLINKARM_RESET_TYPE_NORMAL)  returns JLINKARM_RESET_TYPE_NORMAL (0000ms, 0109ms total)
T2494 000:109 JLINK_Reset() -- CPU is running -- CPU_WriteMem(4 bytes @ 0xE000EDF0) -- CPU is running -- CPU_WriteMem(4 bytes @ 0xE000EDFC) >0x35 TIF> -- CPU is running -- CPU_WriteMem(4 bytes @ 0xE000ED0C) -- CPU is running -- CPU_ReadMem(4 bytes @ 0xE000EDF0) -- CPU is running -- CPU_ReadMem(4 bytes @ 0xE000EDF0) -- CPU is running -- CPU_WriteMem(4 bytes @ 0xE000EDF0) -- CPU is running -- CPU_WriteMem(4 bytes @ 0xE000EDFC) -- CPU is running -- CPU_ReadMem(4 bytes @ 0xE000EDF0)
 -- CPU_WriteMem(4 bytes @ 0xE0002000) (0015ms, 0124ms total)
T2494 000:124 JLINK_ReadReg(R15 (PC))  returns 0x08006314 (0000ms, 0124ms total)
T2494 000:124 JLINK_ReadReg(XPSR)  returns 0x01000000 (0000ms, 0124ms total)
T2494 000:124 JLINK_Halt()  returns 0x00 (0000ms, 0124ms total)
T2494 000:124 JLINK_IsHalted()  returns TRUE (0000ms, 0124ms total)
T2494 000:124 JLINK_ReadMemU32(0xE000EDF0, 0x0001 Items, ...) -- CPU_ReadMem(4 bytes @ 0xE000EDF0) -- Data:  03 00 03 00  returns 0x01 (0001ms, 0125ms total)
T2494 000:125 JLINK_WriteU32(0xE000EDF0, 0xA05F0003) -- CPU_WriteMem(4 bytes @ 0xE000EDF0)  returns 0x00 (0001ms, 0126ms total)
T2494 000:126 JLINK_WriteU32(0xE000EDFC, 0x01000000) -- CPU_WriteMem(4 bytes @ 0xE000EDFC)  returns 0x00 (0000ms, 0126ms total)
T2494 000:126 JLINK_GetHWStatus(...)  returns 0x00 (0001ms, 0127ms total)
T2494 000:127 JLINK_GetNumBPUnits(Type = 0xFFFFFF00)  returns 0x06 (0000ms, 0127ms total)
T2494 000:127 JLINK_GetNumBPUnits(Type = 0xF0)  returns 0x2000 (0000ms, 0127ms total)
T2494 000:127 JLINK_GetNumWPUnits()  returns 0x04 (0000ms, 0127ms total)
T2494 000:127 JLINK_GetSpeed()  returns 0xFA0 (0000ms, 0127ms total)
T2494 000:127 JLINK_ReadMemU32(0xE000E004, 0x0001 Items, ...) -- CPU_ReadMem(4 bytes @ 0xE000E004) -- Data:  01 00 00 00  returns 0x01 (0001ms, 0128ms total)
T2494 000:128 JLINK_ReadMemU32(0xE000E004, 0x0001 Items, ...) -- CPU_ReadMem(4 bytes @ 0xE000E004) -- Data:  01 00 00 00  returns 0x01 (0000ms, 0128ms total)
T2494 000:128 JLINK_WriteMem(0xE0001000, 0x001C Bytes, ...) -- Data:  01 00 00 00 00 00 00 00 00 00 00 00 00 00 00 00 ... -- CPU_WriteMem(28 bytes @ 0xE0001000)  returns 0x1C (0001ms, 0129ms total)
T2494 000:129 JLINK_ReadMem (0xE0001000, 0x001C Bytes, ...) -- CPU_ReadMem(28 bytes @ 0xE0001000) -- Data:  01 00 00 40 00 00 00 00 00 00 00 00 00 00 00 00 ...  returns 0x00 (0001ms, 0130ms total)
T2494 000:130 JLINK_ReadReg(R15 (PC))  returns 0x08006314 (0000ms, 0130ms total)
T2494 000:130 JLINK_ReadReg(XPSR)  returns 0x01000000 (0000ms, 0130ms total)
T2494 000:231 JLINK_SetResetType(JLINKARM_RESET_TYPE_NORMAL)  returns JLINKARM_RESET_TYPE_NORMAL (0000ms, 0130ms total)
T2494 000:231 JLINK_Reset() -- CPU_WriteMem(4 bytes @ 0xE000EDF0) -- CPU_WriteMem(4 bytes @ 0xE000EDFC) >0x35 TIF> -- CPU_WriteMem(4 bytes @ 0xE000ED0C) -- CPU_ReadMem(4 bytes @ 0xE000EDF0) -- CPU_ReadMem(4 bytes @ 0xE000EDF0) -- CPU_WriteMem(4 bytes @ 0xE000EDF0) -- CPU_WriteMem(4 bytes @ 0xE000EDFC) -- CPU is running -- CPU_ReadMem(4 bytes @ 0xE000EDF0) -- CPU_WriteMem(4 bytes @ 0xE0002000) (0016ms, 0146ms total)
T2494 000:247 JLINK_ReadReg(R15 (PC))  returns 0x08006314 (0000ms, 0146ms total)
T2494 000:247 JLINK_ReadReg(XPSR)  returns 0x01000000 (0000ms, 0146ms total)
T2494 000:248 JLINK_ReadMem (0x08006314, 0x003C Bytes, ...) -- CPU_ReadMem(128 bytes @ 0x08006300) -- Updating C cache (128 bytes @ 0x08006300) -- Read from C cache (60 bytes @ 0x08006314) -- Data:  06 48 80 47 06 48 00 47 FE E7 FE E7 FE E7 FE E7 ...  returns 0x00 (0001ms, 0147ms total)
T2B14 001:369 JLINK_SetBPEx(Addr = 0x08000464, Type = 0xFFFFFFF2)  returns 0x00000001 (0000ms, 0148ms total)
T2B14 001:369 JLINK_Go() -- CPU_WriteMem(4 bytes @ 0xE0002008) -- CPU_WriteMem(4 bytes @ 0xE000200C) -- CPU_WriteMem(4 bytes @ 0xE0002010) -- CPU_WriteMem(4 bytes @ 0xE0002014) -- CPU_WriteMem(4 bytes @ 0xE0002018) -- CPU_WriteMem(4 bytes @ 0xE000201C) (0004ms, 0152ms total)
T2B14 001:473 JLINK_IsHalted()  returns TRUE (0002ms, 0154ms total)
T2B14 001:475 JLINK_Halt()  returns 0x00 (0000ms, 0152ms total)
T2B14 001:475 JLINK_IsHalted()  returns TRUE (0000ms, 0152ms total)
T2B14 001:475 JLINK_IsHalted()  returns TRUE (0000ms, 0152ms total)
T2B14 001:475 JLINK_IsHalted()  returns TRUE (0000ms, 0152ms total)
T2B14 001:475 JLINK_ReadReg(R15 (PC))  returns 0x08000464 (0000ms, 0152ms total)
T2B14 001:475 JLINK_ReadReg(XPSR)  returns 0x61000000 (0000ms, 0152ms total)
T2B14 001:475 JLINK_ClrBPEx(BPHandle = 0x00000001)  returns 0x00 (0001ms, 0153ms total)
T2B14 001:476 JLINK_ReadMemU32(0xE000ED30, 0x0001 Items, ...) -- CPU_ReadMem(4 bytes @ 0xE000ED30) -- Data:  03 00 00 00  returns 0x01 (0000ms, 0153ms total)
T2B14 001:476 JLINK_ReadMemU32(0xE0001028, 0x0001 Items, ...) -- CPU_ReadMem(4 bytes @ 0xE0001028) -- Data:  00 00 00 00  returns 0x01 (0001ms, 0154ms total)
T2B14 001:477 JLINK_ReadMemU32(0xE0001038, 0x0001 Items, ...) -- CPU_ReadMem(4 bytes @ 0xE0001038) -- Data:  00 02 00 00  returns 0x01 (0000ms, 0154ms total)
T2B14 001:477 JLINK_ReadMemU32(0xE0001048, 0x0001 Items, ...) -- CPU_ReadMem(4 bytes @ 0xE0001048) -- Data:  00 00 00 00  returns 0x01 (0001ms, 0155ms total)
T2B14 001:478 JLINK_ReadMemU32(0xE0001058, 0x0001 Items, ...) -- CPU_ReadMem(4 bytes @ 0xE0001058) -- Data:  00 00 00 00  returns 0x01 (0001ms, 0156ms total)
T2B14 001:479 JLINK_ReadReg(R0)  returns 0x08000465 (0000ms, 0156ms total)
T2B14 001:479 JLINK_ReadReg(R1)  returns 0x20006D58 (0000ms, 0156ms total)
T2B14 001:479 JLINK_ReadReg(R2)  returns 0x00000000 (0000ms, 0156ms total)
T2B14 001:479 JLINK_ReadReg(R3)  returns 0x0800AB99 (0000ms, 0156ms total)
T2B14 001:479 JLINK_ReadReg(R4)  returns 0x0800E494 (0000ms, 0156ms total)
T2B14 001:479 JLINK_ReadReg(R5)  returns 0x0800E494 (0000ms, 0156ms total)
T2B14 001:479 JLINK_ReadReg(R6)  returns 0x00000000 (0000ms, 0156ms total)
T2B14 001:479 JLINK_ReadReg(R7)  returns 0x00000000 (0000ms, 0156ms total)
T2B14 001:479 JLINK_ReadReg(R8)  returns 0x00000000 (0000ms, 0156ms total)
T2B14 001:479 JLINK_ReadReg(R9)  returns 0x20000160 (0000ms, 0156ms total)
T2B14 001:479 JLINK_ReadReg(R10)  returns 0x00000000 (0000ms, 0156ms total)
T2B14 001:479 JLINK_ReadReg(R11)  returns 0x00000000 (0000ms, 0156ms total)
T2B14 001:479 JLINK_ReadReg(R12)  returns 0x00000000 (0000ms, 0156ms total)
T2B14 001:479 JLINK_ReadReg(R13 (SP))  returns 0x20006D58 (0000ms, 0156ms total)
T2B14 001:479 JLINK_ReadReg(R14)  returns 0x0800A9D9 (0000ms, 0156ms total)
T2B14 001:479 JLINK_ReadReg(R15 (PC))  returns 0x08000464 (0000ms, 0156ms total)
T2B14 001:479 JLINK_ReadReg(XPSR)  returns 0x61000000 (0000ms, 0156ms total)
T2B14 001:479 JLINK_ReadReg(MSP)  returns 0x20006D58 (0000ms, 0156ms total)
T2B14 001:479 JLINK_ReadReg(PSP)  returns 0x20001000 (0000ms, 0156ms total)
T2B14 001:479 JLINK_ReadReg(CFBP)  returns 0x00000000 (0000ms, 0156ms total)
T2494 001:485 JLINK_ReadMemU32(0xE0001004, 0x0001 Items, ...) -- CPU_ReadMem(4 bytes @ 0xE0001004) -- Data:  3B 1B 01 00  returns 0x01 (0000ms, 0156ms total)
T2494 001:487 JLINK_ReadMem (0x08000464, 0x003C Bytes, ...) -- CPU_ReadMem(128 bytes @ 0x08000440) -- Updating C cache (128 bytes @ 0x08000440) -- Read from C cache (60 bytes @ 0x08000464) -- Data:  1C B5 4F F4 40 70 05 F0 65 FF 05 F0 65 FE 4F F4 ...  returns 0x00 (0002ms, 0158ms total)
T2B14 015:884 JLINK_SetBPEx(Addr = 0x08000372, Type = 0xFFFFFFF2)  returns 0x00000002 (0000ms, 0158ms total)
T2B14 015:884 JLINK_Go() -- CPU_WriteMem(4 bytes @ 0xE0002008) (0002ms, 0160ms total)
T2B14 015:986 JLINK_IsHalted()  returns FALSE (0000ms, 0160ms total)
T2B14 016:086 JLINK_IsHalted()  returns FALSE (0000ms, 0160ms total)
T2B14 016:186 JLINK_IsHalted()  returns FALSE (0000ms, 0160ms total)
T2B14 016:286 JLINK_IsHalted()  returns FALSE (0000ms, 0160ms total)
T2B14 016:386 JLINK_IsHalted()  returns FALSE (0000ms, 0160ms total)
T2B14 016:486 JLINK_IsHalted()  returns FALSE (0000ms, 0160ms total)
T2B14 016:586 JLINK_IsHalted()  returns FALSE (0000ms, 0160ms total)
T2B14 016:686 JLINK_IsHalted()  returns FALSE (0000ms, 0160ms total)
T2B14 016:786 JLINK_IsHalted()  returns FALSE (0000ms, 0160ms total)
T2B14 016:886 JLINK_IsHalted()  returns FALSE (0001ms, 0161ms total)
T2B14 016:987 JLINK_IsHalted()  returns FALSE (0001ms, 0161ms total)
T2B14 017:088 JLINK_IsHalted()  returns FALSE (0000ms, 0160ms total)
T2B14 017:188 JLINK_IsHalted()  returns FALSE (0000ms, 0160ms total)
T2B14 017:288 JLINK_IsHalted()  returns FALSE (0000ms, 0160ms total)
T2B14 017:388 JLINK_IsHalted()  returns FALSE (0000ms, 0160ms total)
T2B14 017:488 JLINK_IsHalted()  returns FALSE (0000ms, 0160ms total)
T2B14 017:589 JLINK_IsHalted()  returns FALSE (0000ms, 0160ms total)
T2B14 017:689 JLINK_IsHalted()  returns FALSE (0000ms, 0160ms total)
T2B14 017:789 JLINK_IsHalted()  returns FALSE (0000ms, 0160ms total)
T2B14 017:889 JLINK_IsHalted()  returns FALSE (0001ms, 0161ms total)
T2B14 017:990 JLINK_IsHalted()  returns FALSE (0000ms, 0160ms total)
T2B14 018:090 JLINK_IsHalted()  returns FALSE (0000ms, 0160ms total)
T2B14 018:190 JLINK_IsHalted()  returns FALSE (0000ms, 0160ms total)
T2B14 018:290 JLINK_IsHalted()  returns FALSE (0000ms, 0160ms total)
T2B14 018:390 JLINK_IsHalted()  returns FALSE (0000ms, 0160ms total)
T2B14 018:490 JLINK_IsHalted()  returns FALSE (0000ms, 0160ms total)
T2B14 018:590 JLINK_IsHalted()  returns FALSE (0000ms, 0160ms total)
T2B14 018:690 JLINK_IsHalted()  returns FALSE (0000ms, 0160ms total)
T2B14 018:790 JLINK_IsHalted()  returns FALSE (0000ms, 0160ms total)
T2B14 018:890 JLINK_IsHalted()  returns FALSE (0001ms, 0161ms total)
T2B14 018:991 JLINK_IsHalted()  returns FALSE (0000ms, 0160ms total)
T2B14 019:091 JLINK_IsHalted()  returns FALSE (0000ms, 0160ms total)
T2B14 019:191 JLINK_IsHalted()  returns FALSE (0000ms, 0160ms total)
T2B14 019:291 JLINK_IsHalted()  returns FALSE (0000ms, 0160ms total)
T2B14 019:391 JLINK_IsHalted()  returns FALSE (0000ms, 0160ms total)
T2B14 019:491 JLINK_IsHalted()  returns FALSE (0000ms, 0160ms total)
T2B14 019:591 JLINK_IsHalted()  returns FALSE (0000ms, 0160ms total)
T2B14 019:691 JLINK_IsHalted()  returns FALSE (0000ms, 0160ms total)
T2B14 019:791 JLINK_IsHalted()  returns FALSE (0000ms, 0160ms total)
T2B14 019:891 JLINK_IsHalted()  returns FALSE (0000ms, 0160ms total)
T2B14 019:992 JLINK_IsHalted()  returns FALSE (0000ms, 0160ms total)
T2B14 020:092 JLINK_IsHalted()  returns FALSE (0000ms, 0160ms total)
T2B14 020:192 JLINK_IsHalted()  returns FALSE (0000ms, 0160ms total)
T2B14 020:292 JLINK_IsHalted()  returns FALSE (0001ms, 0161ms total)
T2B14 020:393 JLINK_IsHalted()  returns FALSE (0000ms, 0160ms total)
T2B14 020:493 JLINK_IsHalted()  returns FALSE (0000ms, 0160ms total)
T2B14 020:593 JLINK_IsHalted()  returns FALSE (0000ms, 0160ms total)
T2B14 020:693 JLINK_IsHalted()  returns FALSE (0000ms, 0160ms total)
T2B14 020:793 JLINK_IsHalted()  returns FALSE (0000ms, 0160ms total)
T2B14 020:893 JLINK_IsHalted()  returns FALSE (0001ms, 0161ms total)
T2B14 020:994 JLINK_IsHalted()  returns FALSE (0000ms, 0160ms total)
T2B14 021:094 JLINK_IsHalted()  returns FALSE (0000ms, 0160ms total)
T2B14 021:194 JLINK_IsHalted()  returns FALSE (0000ms, 0160ms total)
T2B14 021:294 JLINK_IsHalted()  returns FALSE (0000ms, 0160ms total)
T2B14 021:394 JLINK_IsHalted()  returns FALSE (0000ms, 0160ms total)
T2B14 021:494 JLINK_IsHalted()  returns FALSE (0000ms, 0160ms total)
T2B14 021:594 JLINK_IsHalted()  returns FALSE (0000ms, 0160ms total)
T2B14 021:694 JLINK_IsHalted()  returns FALSE (0000ms, 0160ms total)
T2B14 021:795 JLINK_IsHalted()  returns FALSE (0000ms, 0160ms total)
T2B14 021:895 JLINK_IsHalted()  returns FALSE (0001ms, 0161ms total)
T2B14 021:996 JLINK_IsHalted()  returns FALSE (0000ms, 0160ms total)
T2B14 022:096 JLINK_IsHalted()  returns FALSE (0000ms, 0160ms total)
T2B14 022:196 JLINK_IsHalted()  returns FALSE (0000ms, 0160ms total)
T2B14 022:296 JLINK_IsHalted()  returns FALSE (0000ms, 0160ms total)
T2B14 022:396 JLINK_IsHalted()  returns FALSE (0000ms, 0160ms total)
T2B14 022:496 JLINK_IsHalted()  returns FALSE (0000ms, 0160ms total)
T2B14 022:596 JLINK_IsHalted()  returns FALSE (0000ms, 0160ms total)
T2B14 022:696 JLINK_IsHalted()  returns FALSE (0000ms, 0160ms total)
T2B14 022:796 JLINK_IsHalted()  returns FALSE (0000ms, 0160ms total)
T2B14 022:896 JLINK_IsHalted()  returns FALSE (0001ms, 0161ms total)
T2B14 022:997 JLINK_IsHalted()  returns FALSE (0000ms, 0160ms total)
T2B14 023:097 JLINK_IsHalted()  returns FALSE (0000ms, 0160ms total)
T2B14 023:197 JLINK_IsHalted()  returns FALSE (0000ms, 0160ms total)
T2B14 023:297 JLINK_IsHalted()  returns FALSE (0000ms, 0160ms total)
T2B14 023:397 JLINK_IsHalted()  returns FALSE (0000ms, 0160ms total)
T2B14 023:497 JLINK_IsHalted()  returns FALSE (0000ms, 0160ms total)
T2B14 023:597 JLINK_IsHalted()  returns FALSE (0000ms, 0160ms total)
T2B14 023:697 JLINK_IsHalted()  returns FALSE (0000ms, 0160ms total)
T2B14 023:797 JLINK_IsHalted()  returns FALSE (0000ms, 0160ms total)
T2B14 023:897 JLINK_IsHalted()  returns TRUE (0003ms, 0163ms total)
T2B14 023:900 JLINK_Halt()  returns 0x00 (0000ms, 0160ms total)
T2B14 023:900 JLINK_IsHalted()  returns TRUE (0000ms, 0160ms total)
T2B14 023:900 JLINK_IsHalted()  returns TRUE (0000ms, 0160ms total)
T2B14 023:900 JLINK_IsHalted()  returns TRUE (0000ms, 0160ms total)
T2B14 023:900 JLINK_ReadReg(R15 (PC))  returns 0x08000372 (0000ms, 0160ms total)
T2B14 023:900 JLINK_ReadReg(XPSR)  returns 0x61000000 (0000ms, 0160ms total)
T2B14 023:900 JLINK_ClrBPEx(BPHandle = 0x00000002)  returns 0x00 (0000ms, 0160ms total)
T2B14 023:900 JLINK_ReadMemU32(0xE000ED30, 0x0001 Items, ...) -- CPU_ReadMem(4 bytes @ 0xE000ED30) -- Data:  03 00 00 00  returns 0x01 (0001ms, 0161ms total)
T2B14 023:901 JLINK_ReadMemU32(0xE0001028, 0x0001 Items, ...) -- CPU_ReadMem(4 bytes @ 0xE0001028) -- Data:  00 00 00 00  returns 0x01 (0001ms, 0162ms total)
T2B14 023:902 JLINK_ReadMemU32(0xE0001038, 0x0001 Items, ...) -- CPU_ReadMem(4 bytes @ 0xE0001038) -- Data:  00 02 00 00  returns 0x01 (0000ms, 0162ms total)
T2B14 023:902 JLINK_ReadMemU32(0xE0001048, 0x0001 Items, ...) -- CPU_ReadMem(4 bytes @ 0xE0001048) -- Data:  00 00 00 00  returns 0x01 (0001ms, 0163ms total)
T2B14 023:903 JLINK_ReadMemU32(0xE0001058, 0x0001 Items, ...) -- CPU_ReadMem(4 bytes @ 0xE0001058) -- Data:  00 00 00 00  returns 0x01 (0001ms, 0164ms total)
T2B14 023:904 JLINK_ReadReg(R0)  returns 0x20005D60 (0000ms, 0164ms total)
T2B14 023:904 JLINK_ReadReg(R1)  returns 0x08000591 (0000ms, 0164ms total)
T2B14 023:904 JLINK_ReadReg(R2)  returns 0x00000011 (0000ms, 0164ms total)
T2B14 023:904 JLINK_ReadReg(R3)  returns 0x08000373 (0000ms, 0164ms total)
T2B14 023:904 JLINK_ReadReg(R4)  returns 0x0000003D (0000ms, 0164ms total)
T2B14 023:904 JLINK_ReadReg(R5)  returns 0x00000000 (0000ms, 0164ms total)
T2B14 023:904 JLINK_ReadReg(R6)  returns 0x20000000 (0000ms, 0164ms total)
T2B14 023:904 JLINK_ReadReg(R7)  returns 0x00000010 (0000ms, 0164ms total)
T2B14 023:904 JLINK_ReadReg(R8)  returns 0x0000000E (0000ms, 0164ms total)
T2B14 023:904 JLINK_ReadReg(R9)  returns 0x20000018 (0000ms, 0164ms total)
T2B14 023:904 JLINK_ReadReg(R10)  returns 0x00000080 (0000ms, 0164ms total)
T2B14 023:904 JLINK_ReadReg(R11)  returns 0x00000139 (0000ms, 0164ms total)
T2B14 023:904 JLINK_ReadReg(R12)  returns 0x0800B13C (0000ms, 0164ms total)
T2B14 023:904 JLINK_ReadReg(R13 (SP))  returns 0x20001BB0 (0000ms, 0164ms total)
T2B14 023:905 JLINK_ReadReg(R14)  returns 0x0800C25D (0000ms, 0165ms total)
T2B14 023:905 JLINK_ReadReg(R15 (PC))  returns 0x08000372 (0000ms, 0165ms total)
T2B14 023:905 JLINK_ReadReg(XPSR)  returns 0x61000000 (0000ms, 0165ms total)
T2B14 023:905 JLINK_ReadReg(MSP)  returns 0x20006D38 (0000ms, 0165ms total)
T2B14 023:905 JLINK_ReadReg(PSP)  returns 0x20001BB0 (0000ms, 0165ms total)
T2B14 023:905 JLINK_ReadReg(CFBP)  returns 0x02000000 (0000ms, 0165ms total)
T2494 023:906 JLINK_ReadMem (0x00000000, 0x0004 Bytes, ...)
                JLINK_ReadMemHW(0x00000000, 0x0004 Bytes, ...) -- CPU_ReadMem(4 bytes @ 0x00000000) -- Data:  58 6D 00 20  returns 0x00 (0001ms, 0001ms total)
                JLINK_ReadMemHW(0x08000000, 0x0004 Bytes, ...) -- CPU_ReadMem(4 bytes @ 0x08000000) -- Data:  58 6D 00 20  returns 0x00 (0001ms, 0002ms total)
                JLINK_WriteMemHW(0x00000000, 0x0004 Bytes, ...) -- Data:  09 00 01 00 -- CPU_WriteMem(4 bytes @ 0x00000000)  returns 0x04 (0000ms, 0002ms total)
                JLINK_ReadMemHW(0x00000000, 0x0004 Bytes, ...) -- CPU_ReadMem(4 bytes @ 0x00000000) -- Data:  58 6D 00 20  returns 0x00 (0001ms, 0003ms total)
               -- MA0 is in flash -- Unmirror addr 0x00000000 -- CPU_ReadMem(64 bytes @ 0x08000000) -- Updating C cache (64 bytes @ 0x08000000) -- Read from C cache (4 bytes @ 0x08000000) -- Data:  58 6D 00 20  returns 0x00 (0004ms, 0169ms total)
T2494 023:910 JLINK_ReadMem (0x20001BDC, 0x0004 Bytes, ...) -- CPU_ReadMem(64 bytes @ 0x20001BC0) -- Updating C cache (64 bytes @ 0x20001BC0) -- Read from C cache (4 bytes @ 0x20001BDC) -- Data:  32 36 32 2E  returns 0x00 (0001ms, 0170ms total)
T2494 023:915 JLINK_ReadMemU32(0xE0001004, 0x0001 Items, ...) -- CPU_ReadMem(4 bytes @ 0xE0001004) -- Data:  8F 44 55 22  returns 0x01 (0000ms, 0170ms total)
T2B14 033:979 JLINK_ReadMem (0x08000372, 0x0002 Bytes, ...) -- CPU_ReadMem(64 bytes @ 0x08000340) -- Updating C cache (64 bytes @ 0x08000340) -- Read from C cache (2 bytes @ 0x08000372) -- Data:  4F F4  returns 0x00 (0002ms, 0172ms total)
T2B14 033:981 JLINK_ReadMem (0x08000374, 0x003C Bytes, ...) -- CPU_ReadMem(64 bytes @ 0x08000380) -- Updating C cache (64 bytes @ 0x08000380) -- Read from C cache (60 bytes @ 0x08000374) -- Data:  00 71 0B F0 1D FE 64 1C E4 B2 B4 FB F8 F1 08 FB ...  returns 0x00 (0001ms, 0173ms total)
T2B14 033:982 JLINK_Step() -- Read from C cache (2 bytes @ 0x08000372) -- Read from C cache (2 bytes @ 0x08000374) -- Simulated  returns 0x00 (0000ms, 0173ms total)
T2B14 033:982 JLINK_ReadReg(R15 (PC))  returns 0x08000376 (0001ms, 0174ms total)
T2B14 033:983 JLINK_ReadReg(XPSR)  returns 0x61000000 (0000ms, 0174ms total)
T2B14 033:983 JLINK_Step() -- Read from C cache (2 bytes @ 0x08000376) -- Read from C cache (2 bytes @ 0x08000378) -- Simulated  returns 0x00 (0000ms, 0174ms total)
T2B14 033:983 JLINK_ReadReg(R15 (PC))  returns 0x0800BFB4 (0000ms, 0174ms total)
T2B14 033:983 JLINK_ReadReg(XPSR)  returns 0x61000000 (0000ms, 0174ms total)
T2B14 033:983 JLINK_ReadReg(R0)  returns 0x20005D60 (0000ms, 0174ms total)
T2B14 033:983 JLINK_ReadReg(R1)  returns 0x00000200 (0000ms, 0174ms total)
T2B14 033:983 JLINK_ReadReg(R2)  returns 0x00000011 (0000ms, 0174ms total)
T2B14 033:983 JLINK_ReadReg(R3)  returns 0x08000373 (0000ms, 0174ms total)
T2B14 033:983 JLINK_ReadReg(R4)  returns 0x0000003D (0000ms, 0174ms total)
T2B14 033:983 JLINK_ReadReg(R5)  returns 0x00000000 (0000ms, 0174ms total)
T2B14 033:983 JLINK_ReadReg(R6)  returns 0x20000000 (0000ms, 0174ms total)
T2B14 033:983 JLINK_ReadReg(R7)  returns 0x00000010 (0000ms, 0174ms total)
T2B14 033:983 JLINK_ReadReg(R8)  returns 0x0000000E (0000ms, 0174ms total)
T2B14 033:983 JLINK_ReadReg(R9)  returns 0x20000018 (0000ms, 0174ms total)
T2B14 033:983 JLINK_ReadReg(R10)  returns 0x00000080 (0000ms, 0174ms total)
T2B14 033:983 JLINK_ReadReg(R11)  returns 0x00000139 (0000ms, 0174ms total)
T2B14 033:983 JLINK_ReadReg(R12)  returns 0x0800B13C (0000ms, 0174ms total)
T2B14 033:983 JLINK_ReadReg(R13 (SP))  returns 0x20001BB0 (0001ms, 0175ms total)
T2B14 033:984 JLINK_ReadReg(R14)  returns 0x0800037B (0000ms, 0175ms total)
T2B14 033:984 JLINK_ReadReg(R15 (PC))  returns 0x0800BFB4 (0000ms, 0175ms total)
T2B14 033:984 JLINK_ReadReg(XPSR)  returns 0x61000000 (0000ms, 0175ms total)
T2B14 033:984 JLINK_ReadReg(MSP)  returns 0x20006D38 (0000ms, 0175ms total)
T2B14 033:984 JLINK_ReadReg(PSP)  returns 0x20001BB0 (0000ms, 0175ms total)
T2B14 033:984 JLINK_ReadReg(CFBP)  returns 0x02000000 (0000ms, 0175ms total)
T2494 033:984 JLINK_ReadMem (0x00000000, 0x0004 Bytes, ...) -- Unmirror addr 0x00000000 -- Read from C cache (4 bytes @ 0x08000000) -- Data:  58 6D 00 20  returns 0x00 (0000ms, 0175ms total)
T2494 033:988 JLINK_ReadMem (0x20001BDC, 0x0004 Bytes, ...) -- Read from C cache (4 bytes @ 0x20001BDC) -- Data:  32 36 32 2E  returns 0x00 (0000ms, 0175ms total)
T2494 033:988 JLINK_ReadMemU32(0xE0001004, 0x0001 Items, ...) -- Data:  8F 44 55 22  returns 0x01 (0000ms, 0175ms total)
T2494 034:002 JLINK_ReadMem (0x0800BFB4, 0x003C Bytes, ...) -- CPU_ReadMem(128 bytes @ 0x0800BF80) -- Updating C cache (128 bytes @ 0x0800BF80) -- Read from C cache (60 bytes @ 0x0800BFB4) -- Data:  3E B5 05 46 0C 46 68 46 00 F0 90 FD 00 28 01 D0 ...  returns 0x00 (0001ms, 0176ms total)
T2B14 038:259 JLINK_Step() -- Read from C cache (2 bytes @ 0x0800BFB4) -- CPU_WriteMem(24 bytes @ 0x20001B98) -- Simulated  returns 0x00 (0001ms, 0177ms total)
T2B14 038:260 JLINK_ReadReg(R15 (PC))  returns 0x0800BFB6 (0000ms, 0177ms total)
T2B14 038:260 JLINK_ReadReg(XPSR)  returns 0x61000000 (0000ms, 0177ms total)
T2B14 038:260 JLINK_Step() -- Read from C cache (2 bytes @ 0x0800BFB6) -- Simulated  returns 0x00 (0001ms, 0178ms total)
T2B14 038:261 JLINK_ReadReg(R15 (PC))  returns 0x0800BFB8 (0000ms, 0178ms total)
T2B14 038:261 JLINK_ReadReg(XPSR)  returns 0x61000000 (0000ms, 0178ms total)
T2B14 038:261 JLINK_Step() -- Read from C cache (2 bytes @ 0x0800BFB8) -- Simulated  returns 0x00 (0000ms, 0178ms total)
T2B14 038:261 JLINK_ReadReg(R15 (PC))  returns 0x0800BFBA (0000ms, 0178ms total)
T2B14 038:261 JLINK_ReadReg(XPSR)  returns 0x61000000 (0000ms, 0178ms total)
T2B14 038:261 JLINK_ReadReg(R0)  returns 0x20005D60 (0000ms, 0178ms total)
T2B14 038:261 JLINK_ReadReg(R1)  returns 0x00000200 (0000ms, 0178ms total)
T2B14 038:261 JLINK_ReadReg(R2)  returns 0x00000011 (0000ms, 0178ms total)
T2B14 038:261 JLINK_ReadReg(R3)  returns 0x08000373 (0000ms, 0178ms total)
T2B14 038:261 JLINK_ReadReg(R4)  returns 0x00000200 (0000ms, 0178ms total)
T2B14 038:261 JLINK_ReadReg(R5)  returns 0x20005D60 (0000ms, 0178ms total)
T2B14 038:261 JLINK_ReadReg(R6)  returns 0x20000000 (0000ms, 0178ms total)
T2B14 038:261 JLINK_ReadReg(R7)  returns 0x00000010 (0000ms, 0178ms total)
T2B14 038:261 JLINK_ReadReg(R8)  returns 0x0000000E (0000ms, 0178ms total)
T2B14 038:261 JLINK_ReadReg(R9)  returns 0x20000018 (0000ms, 0178ms total)
T2B14 038:261 JLINK_ReadReg(R10)  returns 0x00000080 (0000ms, 0178ms total)
T2B14 038:261 JLINK_ReadReg(R11)  returns 0x00000139 (0000ms, 0178ms total)
T2B14 038:261 JLINK_ReadReg(R12)  returns 0x0800B13C (0000ms, 0178ms total)
T2B14 038:262 JLINK_ReadReg(R13 (SP))  returns 0x20001B98 (0000ms, 0179ms total)
T2B14 038:262 JLINK_ReadReg(R14)  returns 0x0800037B (0000ms, 0179ms total)
T2B14 038:262 JLINK_ReadReg(R15 (PC))  returns 0x0800BFBA (0000ms, 0179ms total)
T2B14 038:262 JLINK_ReadReg(XPSR)  returns 0x61000000 (0000ms, 0179ms total)
T2B14 038:262 JLINK_ReadReg(MSP)  returns 0x20006D38 (0000ms, 0179ms total)
T2B14 038:262 JLINK_ReadReg(PSP)  returns 0x20001B98 (0000ms, 0179ms total)
T2B14 038:262 JLINK_ReadReg(CFBP)  returns 0x02000000 (0000ms, 0179ms total)
T2494 038:262 JLINK_ReadMem (0x20001BAC, 0x0004 Bytes, ...) -- CPU_ReadMem(64 bytes @ 0x20001B80) -- Updating C cache (64 bytes @ 0x20001B80) -- Read from C cache (4 bytes @ 0x20001BAC) -- Data:  7B 03 00 08  returns 0x00 (0001ms, 0180ms total)
T2494 038:263 JLINK_ReadMem (0x20001BA4, 0x0004 Bytes, ...) -- Read from C cache (4 bytes @ 0x20001BA4) -- Data:  3D 00 00 00  returns 0x00 (0000ms, 0180ms total)
T2494 038:263 JLINK_ReadMem (0x20001BA8, 0x0004 Bytes, ...) -- Read from C cache (4 bytes @ 0x20001BA8) -- Data:  00 00 00 00  returns 0x00 (0000ms, 0180ms total)
T2494 038:264 JLINK_ReadMem (0x00000000, 0x0004 Bytes, ...) -- Unmirror addr 0x00000000 -- Read from C cache (4 bytes @ 0x08000000) -- Data:  58 6D 00 20  returns 0x00 (0000ms, 0180ms total)
T2494 038:264 JLINK_ReadMem (0x20001BDC, 0x0004 Bytes, ...) -- Read from C cache (4 bytes @ 0x20001BDC) -- Data:  32 36 32 2E  returns 0x00 (0000ms, 0180ms total)
T2494 038:264 JLINK_ReadMemU32(0xE0001004, 0x0001 Items, ...) -- Data:  8F 44 55 22  returns 0x01 (0000ms, 0180ms total)
T2B14 038:995 JLINK_ReadMem (0x0800BFBA, 0x0002 Bytes, ...) -- Read from C cache (2 bytes @ 0x0800BFBA) -- Data:  68 46  returns 0x00 (0000ms, 0180ms total)
T2B14 038:995 JLINK_ReadMem (0x0800BFBC, 0x003C Bytes, ...) -- Read from C cache (60 bytes @ 0x0800BFBC) -- Data:  00 F0 90 FD 00 28 01 D0 00 20 3E BD 23 46 6A 46 ...  returns 0x00 (0000ms, 0180ms total)
T2B14 038:995 JLINK_Step() -- Read from C cache (2 bytes @ 0x0800BFBA) -- Simulated  returns 0x00 (0000ms, 0180ms total)
T2B14 038:995 JLINK_ReadReg(R15 (PC))  returns 0x0800BFBC (0000ms, 0180ms total)
T2B14 038:995 JLINK_ReadReg(XPSR)  returns 0x61000000 (0001ms, 0181ms total)
T2B14 038:996 JLINK_Step() -- Read from C cache (2 bytes @ 0x0800BFBC) -- Read from C cache (2 bytes @ 0x0800BFBE) -- Simulated  returns 0x00 (0000ms, 0181ms total)
T2B14 038:996 JLINK_ReadReg(R15 (PC))  returns 0x0800CAE0 (0000ms, 0181ms total)
T2B14 038:996 JLINK_ReadReg(XPSR)  returns 0x61000000 (0000ms, 0181ms total)
T2B14 038:996 JLINK_ReadReg(R0)  returns 0x20001B98 (0000ms, 0181ms total)
T2B14 038:996 JLINK_ReadReg(R1)  returns 0x00000200 (0000ms, 0181ms total)
T2B14 038:996 JLINK_ReadReg(R2)  returns 0x00000011 (0000ms, 0181ms total)
T2B14 038:996 JLINK_ReadReg(R3)  returns 0x08000373 (0000ms, 0181ms total)
T2B14 038:996 JLINK_ReadReg(R4)  returns 0x00000200 (0000ms, 0181ms total)
T2B14 038:996 JLINK_ReadReg(R5)  returns 0x20005D60 (0000ms, 0181ms total)
T2B14 038:996 JLINK_ReadReg(R6)  returns 0x20000000 (0000ms, 0181ms total)
T2B14 038:996 JLINK_ReadReg(R7)  returns 0x00000010 (0000ms, 0181ms total)
T2B14 038:996 JLINK_ReadReg(R8)  returns 0x0000000E (0000ms, 0181ms total)
T2B14 038:996 JLINK_ReadReg(R9)  returns 0x20000018 (0000ms, 0181ms total)
T2B14 038:996 JLINK_ReadReg(R10)  returns 0x00000080 (0000ms, 0181ms total)
T2B14 038:996 JLINK_ReadReg(R11)  returns 0x00000139 (0000ms, 0181ms total)
T2B14 038:996 JLINK_ReadReg(R12)  returns 0x0800B13C (0000ms, 0181ms total)
T2B14 038:997 JLINK_ReadReg(R13 (SP))  returns 0x20001B98 (0000ms, 0182ms total)
T2B14 038:997 JLINK_ReadReg(R14)  returns 0x0800BFC1 (0000ms, 0182ms total)
T2B14 038:997 JLINK_ReadReg(R15 (PC))  returns 0x0800CAE0 (0000ms, 0182ms total)
T2B14 038:997 JLINK_ReadReg(XPSR)  returns 0x61000000 (0000ms, 0182ms total)
T2B14 038:997 JLINK_ReadReg(MSP)  returns 0x20006D38 (0000ms, 0182ms total)
T2B14 038:997 JLINK_ReadReg(PSP)  returns 0x20001B98 (0000ms, 0182ms total)
T2B14 038:997 JLINK_ReadReg(CFBP)  returns 0x02000000 (0000ms, 0182ms total)
T2494 038:997 JLINK_ReadMem (0x20001BAC, 0x0004 Bytes, ...) -- Read from C cache (4 bytes @ 0x20001BAC) -- Data:  7B 03 00 08  returns 0x00 (0000ms, 0182ms total)
T2494 038:997 JLINK_ReadMem (0x20001BA4, 0x0004 Bytes, ...) -- Read from C cache (4 bytes @ 0x20001BA4) -- Data:  3D 00 00 00  returns 0x00 (0000ms, 0182ms total)
T2494 038:997 JLINK_ReadMem (0x20001BA8, 0x0004 Bytes, ...) -- Read from C cache (4 bytes @ 0x20001BA8) -- Data:  00 00 00 00  returns 0x00 (0000ms, 0182ms total)
T2494 038:997 JLINK_ReadMem (0x00000000, 0x0004 Bytes, ...) -- Unmirror addr 0x00000000 -- Read from C cache (4 bytes @ 0x08000000) -- Data:  58 6D 00 20  returns 0x00 (0001ms, 0183ms total)
T2494 039:001 JLINK_ReadMem (0x20001BDC, 0x0004 Bytes, ...) -- Read from C cache (4 bytes @ 0x20001BDC) -- Data:  32 36 32 2E  returns 0x00 (0000ms, 0183ms total)
T2494 039:001 JLINK_ReadMemU32(0xE0001004, 0x0001 Items, ...) -- Data:  8F 44 55 22  returns 0x01 (0000ms, 0183ms total)
T2494 039:003 JLINK_ReadMem (0x0800CAE0, 0x003C Bytes, ...) -- CPU_ReadMem(128 bytes @ 0x0800CAC0) -- Updating C cache (128 bytes @ 0x0800CAC0) -- Read from C cache (60 bytes @ 0x0800CAE0) -- Data:  70 B5 04 46 00 25 10 20 65 60 A0 60 FF F7 9A FC ...  returns 0x00 (0002ms, 0185ms total)
T2B14 040:780 JLINK_Step() -- Read from C cache (2 bytes @ 0x0800CAE0) -- CPU_WriteMem(16 bytes @ 0x20001B88) -- Simulated  returns 0x00 (0002ms, 0187ms total)
T2B14 040:782 JLINK_ReadReg(R15 (PC))  returns 0x0800CAE2 (0000ms, 0187ms total)
T2B14 040:782 JLINK_ReadReg(XPSR)  returns 0x61000000 (0000ms, 0187ms total)
T2B14 040:782 JLINK_Step() -- Read from C cache (2 bytes @ 0x0800CAE2) -- Simulated  returns 0x00 (0000ms, 0187ms total)
T2B14 040:782 JLINK_ReadReg(R15 (PC))  returns 0x0800CAE4 (0000ms, 0187ms total)
T2B14 040:782 JLINK_ReadReg(XPSR)  returns 0x61000000 (0000ms, 0187ms total)
T2B14 040:782 JLINK_ReadReg(R0)  returns 0x20001B98 (0000ms, 0187ms total)
T2B14 040:782 JLINK_ReadReg(R1)  returns 0x00000200 (0000ms, 0187ms total)
T2B14 040:782 JLINK_ReadReg(R2)  returns 0x00000011 (0000ms, 0187ms total)
T2B14 040:782 JLINK_ReadReg(R3)  returns 0x08000373 (0000ms, 0187ms total)
T2B14 040:782 JLINK_ReadReg(R4)  returns 0x20001B98 (0000ms, 0187ms total)
T2B14 040:782 JLINK_ReadReg(R5)  returns 0x20005D60 (0000ms, 0187ms total)
T2B14 040:782 JLINK_ReadReg(R6)  returns 0x20000000 (0001ms, 0188ms total)
T2B14 040:783 JLINK_ReadReg(R7)  returns 0x00000010 (0000ms, 0188ms total)
T2B14 040:783 JLINK_ReadReg(R8)  returns 0x0000000E (0000ms, 0188ms total)
T2B14 040:783 JLINK_ReadReg(R9)  returns 0x20000018 (0000ms, 0188ms total)
T2B14 040:783 JLINK_ReadReg(R10)  returns 0x00000080 (0000ms, 0188ms total)
T2B14 040:783 JLINK_ReadReg(R11)  returns 0x00000139 (0000ms, 0188ms total)
T2B14 040:783 JLINK_ReadReg(R12)  returns 0x0800B13C (0000ms, 0188ms total)
T2B14 040:783 JLINK_ReadReg(R13 (SP))  returns 0x20001B88 (0000ms, 0188ms total)
T2B14 040:783 JLINK_ReadReg(R14)  returns 0x0800BFC1 (0000ms, 0188ms total)
T2B14 040:783 JLINK_ReadReg(R15 (PC))  returns 0x0800CAE4 (0000ms, 0188ms total)
T2B14 040:783 JLINK_ReadReg(XPSR)  returns 0x61000000 (0000ms, 0188ms total)
T2B14 040:783 JLINK_ReadReg(MSP)  returns 0x20006D38 (0000ms, 0188ms total)
T2B14 040:783 JLINK_ReadReg(PSP)  returns 0x20001B88 (0000ms, 0188ms total)
T2B14 040:783 JLINK_ReadReg(CFBP)  returns 0x02000000 (0000ms, 0188ms total)
T2494 040:783 JLINK_ReadMem (0x20001B94, 0x0004 Bytes, ...) -- CPU_ReadMem(64 bytes @ 0x20001B80) -- Updating C cache (64 bytes @ 0x20001B80) -- Read from C cache (4 bytes @ 0x20001B94) -- Data:  C1 BF 00 08  returns 0x00 (0002ms, 0190ms total)
T2494 040:785 JLINK_ReadMem (0x20001B88, 0x0004 Bytes, ...) -- Read from C cache (4 bytes @ 0x20001B88) -- Data:  00 02 00 00  returns 0x00 (0000ms, 0190ms total)
T2494 040:785 JLINK_ReadMem (0x20001B8C, 0x0004 Bytes, ...) -- Read from C cache (4 bytes @ 0x20001B8C) -- Data:  60 5D 00 20  returns 0x00 (0000ms, 0190ms total)
T2494 040:785 JLINK_ReadMem (0x20001B90, 0x0004 Bytes, ...) -- Read from C cache (4 bytes @ 0x20001B90) -- Data:  00 00 00 20  returns 0x00 (0000ms, 0190ms total)
T2494 040:785 JLINK_ReadMem (0x20001BAC, 0x0004 Bytes, ...) -- Read from C cache (4 bytes @ 0x20001BAC) -- Data:  7B 03 00 08  returns 0x00 (0000ms, 0190ms total)
T2494 040:785 JLINK_ReadMem (0x20001BA4, 0x0004 Bytes, ...) -- Read from C cache (4 bytes @ 0x20001BA4) -- Data:  3D 00 00 00  returns 0x00 (0000ms, 0190ms total)
T2494 040:785 JLINK_ReadMem (0x20001BA8, 0x0004 Bytes, ...) -- Read from C cache (4 bytes @ 0x20001BA8) -- Data:  00 00 00 00  returns 0x00 (0000ms, 0190ms total)
T2494 040:785 JLINK_ReadMem (0x00000000, 0x0004 Bytes, ...) -- Unmirror addr 0x00000000 -- Read from C cache (4 bytes @ 0x08000000) -- Data:  58 6D 00 20  returns 0x00 (0000ms, 0190ms total)
T2494 040:785 JLINK_ReadMem (0x20001BDC, 0x0004 Bytes, ...) -- Read from C cache (4 bytes @ 0x20001BDC) -- Data:  32 36 32 2E  returns 0x00 (0001ms, 0191ms total)
T2494 040:786 JLINK_ReadMemU32(0xE0001004, 0x0001 Items, ...) -- Data:  8F 44 55 22  returns 0x01 (0000ms, 0191ms total)
T2B14 041:851 JLINK_ReadMem (0x0800CAE4, 0x003C Bytes, ...) -- Read from C cache (60 bytes @ 0x0800CAE4) -- Data:  00 25 10 20 65 60 A0 60 FF F7 9A FC 20 60 00 28 ...  returns 0x00 (0000ms, 0191ms total)
T2B14 041:851 JLINK_Step() -- Read from C cache (2 bytes @ 0x0800CAE4) -- Simulated  returns 0x00 (0001ms, 0192ms total)
T2B14 041:852 JLINK_ReadReg(R15 (PC))  returns 0x0800CAE6 (0000ms, 0192ms total)
T2B14 041:852 JLINK_ReadReg(XPSR)  returns 0x61000000 (0000ms, 0192ms total)
T2B14 041:852 JLINK_ReadReg(R0)  returns 0x20001B98 (0000ms, 0192ms total)
T2B14 041:852 JLINK_ReadReg(R1)  returns 0x00000200 (0000ms, 0192ms total)
T2B14 041:852 JLINK_ReadReg(R2)  returns 0x00000011 (0000ms, 0192ms total)
T2B14 041:852 JLINK_ReadReg(R3)  returns 0x08000373 (0000ms, 0192ms total)
T2B14 041:852 JLINK_ReadReg(R4)  returns 0x20001B98 (0000ms, 0192ms total)
T2B14 041:852 JLINK_ReadReg(R5)  returns 0x00000000 (0000ms, 0192ms total)
T2B14 041:852 JLINK_ReadReg(R6)  returns 0x20000000 (0001ms, 0193ms total)
T2B14 041:853 JLINK_ReadReg(R7)  returns 0x00000010 (0000ms, 0193ms total)
T2B14 041:853 JLINK_ReadReg(R8)  returns 0x0000000E (0000ms, 0193ms total)
T2B14 041:853 JLINK_ReadReg(R9)  returns 0x20000018 (0000ms, 0193ms total)
T2B14 041:853 JLINK_ReadReg(R10)  returns 0x00000080 (0000ms, 0193ms total)
T2B14 041:853 JLINK_ReadReg(R11)  returns 0x00000139 (0000ms, 0193ms total)
T2B14 041:853 JLINK_ReadReg(R12)  returns 0x0800B13C (0000ms, 0193ms total)
T2B14 041:853 JLINK_ReadReg(R13 (SP))  returns 0x20001B88 (0000ms, 0193ms total)
T2B14 041:853 JLINK_ReadReg(R14)  returns 0x0800BFC1 (0000ms, 0193ms total)
T2B14 041:853 JLINK_ReadReg(R15 (PC))  returns 0x0800CAE6 (0000ms, 0193ms total)
T2B14 041:853 JLINK_ReadReg(XPSR)  returns 0x61000000 (0000ms, 0193ms total)
T2B14 041:853 JLINK_ReadReg(MSP)  returns 0x20006D38 (0000ms, 0193ms total)
T2B14 041:853 JLINK_ReadReg(PSP)  returns 0x20001B88 (0000ms, 0193ms total)
T2B14 041:853 JLINK_ReadReg(CFBP)  returns 0x02000000 (0000ms, 0193ms total)
T2494 041:853 JLINK_ReadMem (0x20001B94, 0x0004 Bytes, ...) -- Read from C cache (4 bytes @ 0x20001B94) -- Data:  C1 BF 00 08  returns 0x00 (0000ms, 0193ms total)
T2494 041:853 JLINK_ReadMem (0x20001B88, 0x0004 Bytes, ...) -- Read from C cache (4 bytes @ 0x20001B88) -- Data:  00 02 00 00  returns 0x00 (0001ms, 0194ms total)
T2494 041:854 JLINK_ReadMem (0x20001B8C, 0x0004 Bytes, ...) -- Read from C cache (4 bytes @ 0x20001B8C) -- Data:  60 5D 00 20  returns 0x00 (0000ms, 0194ms total)
T2494 041:854 JLINK_ReadMem (0x20001B90, 0x0004 Bytes, ...) -- Read from C cache (4 bytes @ 0x20001B90) -- Data:  00 00 00 20  returns 0x00 (0000ms, 0194ms total)
T2494 041:854 JLINK_ReadMem (0x20001BAC, 0x0004 Bytes, ...) -- Read from C cache (4 bytes @ 0x20001BAC) -- Data:  7B 03 00 08  returns 0x00 (0000ms, 0194ms total)
T2494 041:854 JLINK_ReadMem (0x20001BA4, 0x0004 Bytes, ...) -- Read from C cache (4 bytes @ 0x20001BA4) -- Data:  3D 00 00 00  returns 0x00 (0000ms, 0194ms total)
T2494 041:854 JLINK_ReadMem (0x20001BA8, 0x0004 Bytes, ...) -- Read from C cache (4 bytes @ 0x20001BA8) -- Data:  00 00 00 00  returns 0x00 (0000ms, 0194ms total)
T2494 041:854 JLINK_ReadMem (0x00000000, 0x0004 Bytes, ...) -- Unmirror addr 0x00000000 -- Read from C cache (4 bytes @ 0x08000000) -- Data:  58 6D 00 20  returns 0x00 (0000ms, 0194ms total)
T2494 041:854 JLINK_ReadMem (0x20001BDC, 0x0004 Bytes, ...) -- Read from C cache (4 bytes @ 0x20001BDC) -- Data:  32 36 32 2E  returns 0x00 (0000ms, 0194ms total)
T2494 041:854 JLINK_ReadMemU32(0xE0001004, 0x0001 Items, ...) -- Data:  8F 44 55 22  returns 0x01 (0000ms, 0194ms total)
T2B14 042:516 JLINK_ReadMem (0x0800CAE6, 0x0002 Bytes, ...) -- Read from C cache (2 bytes @ 0x0800CAE6) -- Data:  10 20  returns 0x00 (0000ms, 0194ms total)
T2B14 042:516 JLINK_ReadMem (0x0800CAE8, 0x003C Bytes, ...) -- Read from C cache (60 bytes @ 0x0800CAE8) -- Data:  65 60 A0 60 FF F7 9A FC 20 60 00 28 02 D0 05 70 ...  returns 0x00 (0000ms, 0194ms total)
T2B14 042:516 JLINK_Step() -- Read from C cache (2 bytes @ 0x0800CAE6) -- Simulated  returns 0x00 (0001ms, 0195ms total)
T2B14 042:517 JLINK_ReadReg(R15 (PC))  returns 0x0800CAE8 (0000ms, 0195ms total)
T2B14 042:517 JLINK_ReadReg(XPSR)  returns 0x21000000 (0000ms, 0195ms total)
T2B14 042:517 JLINK_ReadReg(R0)  returns 0x00000010 (0000ms, 0195ms total)
T2B14 042:517 JLINK_ReadReg(R1)  returns 0x00000200 (0000ms, 0195ms total)
T2B14 042:517 JLINK_ReadReg(R2)  returns 0x00000011 (0000ms, 0195ms total)
T2B14 042:517 JLINK_ReadReg(R3)  returns 0x08000373 (0000ms, 0195ms total)
T2B14 042:517 JLINK_ReadReg(R4)  returns 0x20001B98 (0000ms, 0195ms total)
T2B14 042:517 JLINK_ReadReg(R5)  returns 0x00000000 (0000ms, 0195ms total)
T2B14 042:517 JLINK_ReadReg(R6)  returns 0x20000000 (0000ms, 0195ms total)
T2B14 042:517 JLINK_ReadReg(R7)  returns 0x00000010 (0000ms, 0195ms total)
T2B14 042:517 JLINK_ReadReg(R8)  returns 0x0000000E (0000ms, 0195ms total)
T2B14 042:517 JLINK_ReadReg(R9)  returns 0x20000018 (0000ms, 0195ms total)
T2B14 042:517 JLINK_ReadReg(R10)  returns 0x00000080 (0000ms, 0195ms total)
T2B14 042:517 JLINK_ReadReg(R11)  returns 0x00000139 (0000ms, 0195ms total)
T2B14 042:517 JLINK_ReadReg(R12)  returns 0x0800B13C (0000ms, 0195ms total)
T2B14 042:517 JLINK_ReadReg(R13 (SP))  returns 0x20001B88 (0000ms, 0195ms total)
T2B14 042:517 JLINK_ReadReg(R14)  returns 0x0800BFC1 (0001ms, 0196ms total)
T2B14 042:518 JLINK_ReadReg(R15 (PC))  returns 0x0800CAE8 (0000ms, 0196ms total)
T2B14 042:518 JLINK_ReadReg(XPSR)  returns 0x21000000 (0000ms, 0196ms total)
T2B14 042:518 JLINK_ReadReg(MSP)  returns 0x20006D38 (0000ms, 0196ms total)
T2B14 042:518 JLINK_ReadReg(PSP)  returns 0x20001B88 (0000ms, 0196ms total)
T2B14 042:518 JLINK_ReadReg(CFBP)  returns 0x02000000 (0000ms, 0196ms total)
T2494 042:518 JLINK_ReadMem (0x20001B94, 0x0004 Bytes, ...) -- Read from C cache (4 bytes @ 0x20001B94) -- Data:  C1 BF 00 08  returns 0x00 (0000ms, 0196ms total)
T2494 042:518 JLINK_ReadMem (0x20001B88, 0x0004 Bytes, ...) -- Read from C cache (4 bytes @ 0x20001B88) -- Data:  00 02 00 00  returns 0x00 (0000ms, 0196ms total)
T2494 042:518 JLINK_ReadMem (0x20001B8C, 0x0004 Bytes, ...) -- Read from C cache (4 bytes @ 0x20001B8C) -- Data:  60 5D 00 20  returns 0x00 (0000ms, 0196ms total)
T2494 042:518 JLINK_ReadMem (0x20001B90, 0x0004 Bytes, ...) -- Read from C cache (4 bytes @ 0x20001B90) -- Data:  00 00 00 20  returns 0x00 (0000ms, 0196ms total)
T2494 042:518 JLINK_ReadMem (0x20001BAC, 0x0004 Bytes, ...) -- Read from C cache (4 bytes @ 0x20001BAC) -- Data:  7B 03 00 08  returns 0x00 (0000ms, 0196ms total)
T2494 042:518 JLINK_ReadMem (0x20001BA4, 0x0004 Bytes, ...) -- Read from C cache (4 bytes @ 0x20001BA4) -- Data:  3D 00 00 00  returns 0x00 (0000ms, 0196ms total)
T2494 042:518 JLINK_ReadMem (0x20001BA8, 0x0004 Bytes, ...) -- Read from C cache (4 bytes @ 0x20001BA8) -- Data:  00 00 00 00  returns 0x00 (0001ms, 0197ms total)
T2494 042:519 JLINK_ReadMem (0x00000000, 0x0004 Bytes, ...) -- Unmirror addr 0x00000000 -- Read from C cache (4 bytes @ 0x08000000) -- Data:  58 6D 00 20  returns 0x00 (0000ms, 0197ms total)
T2494 042:519 JLINK_ReadMem (0x20001BDC, 0x0004 Bytes, ...) -- Read from C cache (4 bytes @ 0x20001BDC) -- Data:  32 36 32 2E  returns 0x00 (0000ms, 0197ms total)
T2494 042:519 JLINK_ReadMemU32(0xE0001004, 0x0001 Items, ...) -- Data:  8F 44 55 22  returns 0x01 (0000ms, 0197ms total)
T2494 042:521 JLINK_ReadMem (0x0800CAE8, 0x003C Bytes, ...) -- Read from C cache (60 bytes @ 0x0800CAE8) -- Data:  65 60 A0 60 FF F7 9A FC 20 60 00 28 02 D0 05 70 ...  returns 0x00 (0000ms, 0197ms total)
T2B14 044:203 JLINK_Step() -- Read from C cache (2 bytes @ 0x0800CAE8) -- CPU_WriteMem(4 bytes @ 0x20001B9C) -- Invalidate MA0 status -- Simulated  returns 0x00 (0002ms, 0200ms total)
T2B14 044:205 JLINK_ReadReg(R15 (PC))  returns 0x0800CAEA (0000ms, 0200ms total)
T2B14 044:205 JLINK_ReadReg(XPSR)  returns 0x21000000 (0000ms, 0200ms total)
T2B14 044:205 JLINK_Step() -- Read from C cache (2 bytes @ 0x0800CAEA) -- CPU_WriteMem(4 bytes @ 0x20001BA0) -- Simulated  returns 0x00 (0001ms, 0201ms total)
T2B14 044:206 JLINK_ReadReg(R15 (PC))  returns 0x0800CAEC (0000ms, 0201ms total)
T2B14 044:206 JLINK_ReadReg(XPSR)  returns 0x21000000 (0000ms, 0201ms total)
T2B14 044:206 JLINK_Step() -- Read from C cache (2 bytes @ 0x0800CAEC) -- Read from C cache (2 bytes @ 0x0800CAEE) -- Simulated  returns 0x00 (0000ms, 0201ms total)
T2B14 044:206 JLINK_ReadReg(R15 (PC))  returns 0x0800C424 (0000ms, 0201ms total)
T2B14 044:206 JLINK_ReadReg(XPSR)  returns 0x21000000 (0000ms, 0201ms total)
T2B14 044:206 JLINK_ReadReg(R0)  returns 0x00000010 (0000ms, 0201ms total)
T2B14 044:206 JLINK_ReadReg(R1)  returns 0x00000200 (0000ms, 0201ms total)
T2B14 044:206 JLINK_ReadReg(R2)  returns 0x00000011 (0000ms, 0201ms total)
T2B14 044:207 JLINK_ReadReg(R3)  returns 0x08000373 (0000ms, 0201ms total)
T2B14 044:207 JLINK_ReadReg(R4)  returns 0x20001B98 (0000ms, 0201ms total)
T2B14 044:207 JLINK_ReadReg(R5)  returns 0x00000000 (0000ms, 0201ms total)
T2B14 044:207 JLINK_ReadReg(R6)  returns 0x20000000 (0000ms, 0201ms total)
T2B14 044:207 JLINK_ReadReg(R7)  returns 0x00000010 (0000ms, 0201ms total)
T2B14 044:207 JLINK_ReadReg(R8)  returns 0x0000000E (0000ms, 0201ms total)
T2B14 044:207 JLINK_ReadReg(R9)  returns 0x20000018 (0000ms, 0201ms total)
T2B14 044:207 JLINK_ReadReg(R10)  returns 0x00000080 (0000ms, 0201ms total)
T2B14 044:207 JLINK_ReadReg(R11)  returns 0x00000139 (0000ms, 0201ms total)
T2B14 044:207 JLINK_ReadReg(R12)  returns 0x0800B13C (0000ms, 0201ms total)
T2B14 044:207 JLINK_ReadReg(R13 (SP))  returns 0x20001B88 (0000ms, 0201ms total)
T2B14 044:207 JLINK_ReadReg(R14)  returns 0x0800CAF1 (0000ms, 0201ms total)
T2B14 044:207 JLINK_ReadReg(R15 (PC))  returns 0x0800C424 (0000ms, 0201ms total)
T2B14 044:207 JLINK_ReadReg(XPSR)  returns 0x21000000 (0000ms, 0201ms total)
T2B14 044:207 JLINK_ReadReg(MSP)  returns 0x20006D38 (0000ms, 0201ms total)
T2B14 044:207 JLINK_ReadReg(PSP)  returns 0x20001B88 (0000ms, 0201ms total)
T2B14 044:207 JLINK_ReadReg(CFBP)  returns 0x02000000 (0000ms, 0201ms total)
T2494 044:208 JLINK_ReadMem (0x20001B94, 0x0004 Bytes, ...) -- CPU_ReadMem(64 bytes @ 0x20001B80) -- Updating C cache (64 bytes @ 0x20001B80) -- Read from C cache (4 bytes @ 0x20001B94) -- Data:  C1 BF 00 08  returns 0x00 (0001ms, 0202ms total)
T2494 044:209 JLINK_ReadMem (0x20001B88, 0x0004 Bytes, ...) -- Read from C cache (4 bytes @ 0x20001B88) -- Data:  00 02 00 00  returns 0x00 (0000ms, 0202ms total)
T2494 044:209 JLINK_ReadMem (0x20001B8C, 0x0004 Bytes, ...) -- Read from C cache (4 bytes @ 0x20001B8C) -- Data:  60 5D 00 20  returns 0x00 (0000ms, 0202ms total)
T2494 044:209 JLINK_ReadMem (0x20001B90, 0x0004 Bytes, ...) -- Read from C cache (4 bytes @ 0x20001B90) -- Data:  00 00 00 20  returns 0x00 (0000ms, 0202ms total)
T2494 044:209 JLINK_ReadMem (0x20001BAC, 0x0004 Bytes, ...) -- Read from C cache (4 bytes @ 0x20001BAC) -- Data:  7B 03 00 08  returns 0x00 (0000ms, 0202ms total)
T2494 044:209 JLINK_ReadMem (0x20001BA4, 0x0004 Bytes, ...) -- Read from C cache (4 bytes @ 0x20001BA4) -- Data:  3D 00 00 00  returns 0x00 (0000ms, 0202ms total)
T2494 044:209 JLINK_ReadMem (0x20001BA8, 0x0004 Bytes, ...) -- Read from C cache (4 bytes @ 0x20001BA8) -- Data:  00 00 00 00  returns 0x00 (0000ms, 0202ms total)
T2494 044:209 JLINK_ReadMem (0x00000000, 0x0004 Bytes, ...)
                JLINK_ReadMemHW(0x00000000, 0x0004 Bytes, ...) -- CPU_ReadMem(4 bytes @ 0x00000000) -- Data:  58 6D 00 20  returns 0x00 (0001ms, 0001ms total)
                JLINK_ReadMemHW(0x08000000, 0x0004 Bytes, ...) -- CPU_ReadMem(4 bytes @ 0x08000000) -- Data:  58 6D 00 20  returns 0x00 (0001ms, 0002ms total)
                JLINK_WriteMemHW(0x00000000, 0x0004 Bytes, ...) -- Data:  09 00 01 00 -- CPU_WriteMem(4 bytes @ 0x00000000)  returns 0x04 (0001ms, 0003ms total)
